T1E38 000:014.257   SEGGER J-Link V7.82 Log File
T1E38 000:014.389   DLL Compiled: Oct 13 2022 13:32:51
T1E38 000:014.394   Logging started @ 2023-10-28 08:28
T1E38 000:014.398 - 14.400ms
T1E38 000:014.407 JLINK_SetWarnOutHandler(...)
T1E38 000:014.413 - 0.007ms
T1E38 000:014.417 JLINK_OpenEx(...)
T1E38 000:019.728   Firmware: J-Link V9 compiled May  7 2021 16:26:12
T1E38 000:020.224   Firmware: J-Link V9 compiled May  7 2021 16:26:12
T1E38 000:020.363   Decompressing FW timestamp took 110 us
T1E38 000:026.744   Hardware: V9.60
T1E38 000:026.761   S/N: 69606767
T1E38 000:026.767   OEM: SEGGER
T1E38 000:026.774   Feature(s): GDB, RDI, FlashBP, FlashDL, JFlash
T1E38 000:030.829   TELNET listener socket opened on port 19021
T1E38 000:031.088   WEBSRV WEBSRV_Init(): Starting webserver thread(s)
T1E38 000:031.132   WEBSRV Failed to put socket into listener state (port 19080)
T1E38 000:031.186   WEBSRV Webserver running on local port 19081
T1E38 000:042.305 - 27.900ms returns "O.K."
T1E38 000:042.407 JLINK_GetEmuCaps()
T1E38 000:042.414 - 0.009ms returns 0xB9FF7BBF
T1E38 000:042.424 JLINK_TIF_GetAvailable(...)
T1E38 000:042.756 - 0.338ms
T1E38 000:042.796 JLINK_SetErrorOutHandler(...)
T1E38 000:042.802 - 0.008ms
T1E38 000:042.822 JLINK_ExecCommand("ProjectFile = "H:\JK9306\jk9306\Project\JLinkSettings.ini"", ...). 
T1E38 000:053.802 - 10.988ms returns 0x00
T1E38 000:053.880 JLINK_ExecCommand("Device = LPC1788", ...). 
T1E38 000:054.220   Device "LPC1788" selected.
T1E38 000:054.940 - 1.075ms returns 0x00
T1E38 000:054.987 JLINK_ExecCommand("DisableConnectionTimeout", ...). 
T1E38 000:054.994 - 0.003ms returns 0x01
T1E38 000:055.000 JLINK_GetHardwareVersion()
T1E38 000:055.004 - 0.006ms returns 96000
T1E38 000:055.011 JLINK_GetDLLVersion()
T1E38 000:055.015 - 0.006ms returns 78200
T1E38 000:055.020 JLINK_GetOEMString(...)
T1E38 000:055.047 JLINK_GetFirmwareString(...)
T1E38 000:055.051 - 0.006ms
T1E38 000:055.086 JLINK_GetDLLVersion()
T1E38 000:055.090 - 0.020ms returns 78200
T1E38 000:055.109 JLINK_GetCompileDateTime()
T1E38 000:055.113 - 0.006ms
T1E38 000:055.121 JLINK_GetFirmwareString(...)
T1E38 000:055.125 - 0.006ms
T1E38 000:055.132 JLINK_GetHardwareVersion()
T1E38 000:055.136 - 0.006ms returns 96000
T1E38 000:055.144 JLINK_GetSN()
T1E38 000:055.148 - 0.006ms returns 69606767
T1E38 000:055.155 JLINK_GetOEMString(...)
T1E38 000:055.165 JLINK_TIF_Select(JLINKARM_TIF_SWD)
T1E38 000:056.596 - 1.439ms returns 0x00
T1E38 000:056.636 JLINK_HasError()
T1E38 000:056.651 JLINK_SetSpeed(5000)
T1E38 000:056.771 - 0.147ms
T1E38 000:056.836 JLINK_GetId()
T1E38 000:057.644   Found SW-DP with ID 0x2BA01477
T1E38 000:059.912   DPIDR: 0x2BA01477
T1E38 000:059.938   CoreSight SoC-400 or earlier
T1E38 000:059.952   Scanning AP map to find all available APs
T1E38 000:060.466   AP[1]: Stopped AP scan as end of AP map has been reached
T1E38 000:060.479   AP[0]: AHB-AP (IDR: 0x24770011)
T1E38 000:060.491   Iterating through AP map to find AHB-AP to use
T1E38 000:061.196   AP[0]: Core found
T1E38 000:061.206   AP[0]: AHB-AP ROM base: 0xE00FF000
T1E38 000:061.583   CPUID register: 0x412FC230. Implementer code: 0x41 (ARM)
T1E38 000:061.597   Found Cortex-M3 r2p0, Little endian.
T1E38 000:061.883   -- Max. mem block: 0x00010760
T1E38 000:063.764   CPU_ReadMem(4 bytes @ 0xE000EDF0)
T1E38 000:064.012   CPU_ReadMem(4 bytes @ 0xE0002000)
T1E38 000:064.261   FPUnit: 6 code (BP) slots and 2 literal slots
T1E38 000:064.270   CPU_ReadMem(4 bytes @ 0xE000EDFC)
T1E38 000:064.574   CPU_ReadMem(4 bytes @ 0xE0001000)
T1E38 000:064.826   CPU_WriteMem(4 bytes @ 0xE0001000)
T1E38 000:065.071   CPU_ReadMem(4 bytes @ 0xE000ED88)
T1E38 000:065.316   CPU_WriteMem(4 bytes @ 0xE000ED88)
T1E38 000:065.571   CPU_ReadMem(4 bytes @ 0xE000ED88)
T1E38 000:065.817   CPU_WriteMem(4 bytes @ 0xE000ED88)
T1E38 000:066.164   CoreSight components:
T1E38 000:066.183   ROMTbl[0] @ E00FF000
T1E38 000:066.190   CPU_ReadMem(64 bytes @ 0xE00FF000)
T1E38 000:066.789   CPU_ReadMem(32 bytes @ 0xE000EFE0)
T1E38 000:067.300   [0][0]: E000E000 CID B105E00D PID 002BB000 SCS
T1E38 000:067.354   CPU_ReadMem(32 bytes @ 0xE0001FE0)
T1E38 000:067.768   [0][1]: E0001000 CID B105E00D PID 002BB002 DWT
T1E38 000:067.782   CPU_ReadMem(32 bytes @ 0xE0002FE0)
T1E38 000:068.202   [0][2]: E0002000 CID B105E00D PID 002BB003 FPB
T1E38 000:068.215   CPU_ReadMem(32 bytes @ 0xE0000FE0)
T1E38 000:068.668   [0][3]: E0000000 CID B105E00D PID 002BB001 ITM
T1E38 000:068.680   CPU_ReadMem(32 bytes @ 0xE0040FE0)
T1E38 000:069.139   [0][4]: E0040000 CID B105900D PID 002BB923 TPIU-Lite
T1E38 000:069.149   CPU_ReadMem(32 bytes @ 0xE0041FE0)
T1E38 000:069.588   [0][5]: E0041000 CID B105900D PID 002BB924 ETM-M3
T1E38 000:069.836 - 13.005ms returns 0x2BA01477
T1E38 000:069.871 JLINK_GetDLLVersion()
T1E38 000:069.876 - 0.007ms returns 78200
T1E38 000:069.884 JLINK_CORE_GetFound()
T1E38 000:069.889 - 0.006ms returns 0x30000FF
T1E38 000:069.894 JLINK_GetDebugInfo(0x100 = JLINKARM_ROM_TABLE_ADDR_INDEX)
T1E38 000:069.904   Value=0xE00FF000
T1E38 000:069.910 - 0.018ms returns 0
T1E38 000:069.923 JLINK_GetDebugInfo(0x100 = JLINKARM_ROM_TABLE_ADDR_INDEX)
T1E38 000:069.927   Value=0xE00FF000
T1E38 000:069.934 - 0.013ms returns 0
T1E38 000:069.938 JLINK_GetDebugInfo(0x101 = JLINKARM_DEBUG_INFO_ETM_ADDR_INDEX)
T1E38 000:069.943   Value=0xE0041000
T1E38 000:069.949 - 0.012ms returns 0
T1E38 000:069.957 JLINK_ReadMemEx(0xE0041FD0, 0x20 Bytes, Flags = 0x02000004)
T1E38 000:069.986   CPU_ReadMem(32 bytes @ 0xE0041FD0)
T1E38 000:070.380   Data:  04 00 00 00 00 00 00 00 00 00 00 00 00 00 00 00 ...
T1E38 000:070.390 - 0.434ms returns 32 (0x20)
T1E38 000:070.424 JLINK_GetDebugInfo(0x102 = JLINKARM_DEBUG_INFO_MTB_ADDR_INDEX)
T1E38 000:070.431   Value=0x00000000
T1E38 000:070.437 - 0.015ms returns 0
T1E38 000:070.442 JLINK_GetDebugInfo(0x103 = JLINKARM_DEBUG_INFO_TPIU_ADDR_INDEX)
T1E38 000:070.447   Value=0xE0040000
T1E38 000:070.453 - 0.012ms returns 0
T1E38 000:070.457 JLINK_GetDebugInfo(0x104 = JLINKARM_DEBUG_INFO_ITM_ADDR_INDEX)
T1E38 000:070.462   Value=0xE0000000
T1E38 000:070.468 - 0.012ms returns 0
T1E38 000:070.473 JLINK_GetDebugInfo(0x105 = JLINKARM_DEBUG_INFO_DWT_ADDR_INDEX)
T1E38 000:070.477   Value=0xE0001000
T1E38 000:070.483 - 0.012ms returns 0
T1E38 000:070.487 JLINK_GetDebugInfo(0x106 = JLINKARM_DEBUG_INFO_FPB_ADDR_INDEX)
T1E38 000:070.492   Value=0xE0002000
T1E38 000:070.498 - 0.012ms returns 0
T1E38 000:070.502 JLINK_GetDebugInfo(0x107 = JLINKARM_DEBUG_INFO_NVIC_ADDR_INDEX)
T1E38 000:070.507   Value=0xE000E000
T1E38 000:070.513 - 0.012ms returns 0
T1E38 000:070.517 JLINK_GetDebugInfo(0x10C = JLINKARM_DEBUG_INFO_DBG_ADDR_INDEX)
T1E38 000:070.522   Value=0xE000EDF0
T1E38 000:070.528 - 0.012ms returns 0
T1E38 000:070.532 JLINK_GetDebugInfo(0x01 = Unknown)
T1E38 000:070.541   Value=0x00000000
T1E38 000:070.547 - 0.016ms returns 0
T1E38 000:070.552 JLINK_ReadMemU32(0xE000ED00, 0x1 Items)
T1E38 000:070.560   CPU_ReadMem(4 bytes @ 0xE000ED00)
T1E38 000:070.824   Data:  30 C2 2F 41
T1E38 000:070.833   Debug reg: CPUID
T1E38 000:070.838 - 0.288ms returns 1 (0x1)
T1E38 000:070.862 JLINK_GetDebugInfo(0x10F = JLINKARM_DEBUG_INFO_HAS_CORTEX_M_SECURITY_EXT_INDEX)
T1E38 000:070.868   Value=0x00000000
T1E38 000:070.874 - 0.013ms returns 0
T1E38 000:070.880 JLINK_HasError()
T1E38 000:070.886 JLINK_SetResetType(JLINKARM_CM3_RESET_TYPE_NORMAL)
T1E38 000:070.891 - 0.006ms returns JLINKARM_CM3_RESET_TYPE_HALT_AFTER_BTL
T1E38 000:070.896 JLINK_Reset()
T1E38 000:071.005   CPU is running
T1E38 000:071.014   CPU_WriteMem(4 bytes @ 0xE000EDF0)
T1E38 000:071.294   CPU is running
T1E38 000:071.302   CPU_WriteMem(4 bytes @ 0xE000EDFC)
T1E38 000:071.579   Reset: Halt core after reset via DEMCR.VC_CORERESET.
T1E38 000:071.912   Reset: Reset device via AIRCR.SYSRESETREQ.
T1E38 000:071.921   CPU is running
T1E38 000:071.927   CPU_WriteMem(4 bytes @ 0xE000ED0C)
T1E38 000:124.621   CPU_ReadMem(4 bytes @ 0xE000EDF0)
T1E38 000:125.048   CPU_ReadMem(4 bytes @ 0xE000EDF0)
T1E38 000:125.527   CPU is running
T1E38 000:125.539   CPU_WriteMem(4 bytes @ 0xE000EDF0)
T1E38 000:125.959   CPU is running
T1E38 000:125.970   CPU_WriteMem(4 bytes @ 0xE000EDFC)
T1E38 000:131.858   CPU_ReadMem(4 bytes @ 0xE000EDF0)
T1E38 000:134.906   CPU_WriteMem(4 bytes @ 0xE000EDFC)
T1E38 000:135.383   CPU_WriteMem(4 bytes @ 0xE0001028)
T1E38 000:135.679   CPU_WriteMem(4 bytes @ 0xE0001028)
T1E38 000:135.977   CPU_WriteMem(4 bytes @ 0xE000EDFC)
T1E38 000:136.350   CPU_WriteMem(4 bytes @ 0xE0001028)
T1E38 000:136.677   CPU_WriteMem(4 bytes @ 0xE0001028)
T1E38 000:136.957   CPU_WriteMem(4 bytes @ 0xE000EDFC)
T1E38 000:137.250   CPU_WriteMem(4 bytes @ 0xE0001028)
T1E38 000:137.523   CPU_WriteMem(4 bytes @ 0xE0001028)
T1E38 000:137.793   CPU_WriteMem(4 bytes @ 0xE000EDFC)
T1E38 000:138.131   CPU_WriteMem(4 bytes @ 0xE0001028)
T1E38 000:138.477   CPU_WriteMem(4 bytes @ 0xE0001028)
T1E38 000:138.791   CPU_WriteMem(4 bytes @ 0xE000EDFC)
T1E38 000:139.107   CPU_WriteMem(4 bytes @ 0xE0001050)
T1E38 000:139.423   CPU_WriteMem(4 bytes @ 0xE0001054)
T1E38 000:139.693   CPU_WriteMem(4 bytes @ 0xE0001058)
T1E38 000:140.145   CPU_ReadMem(4 bytes @ 0xE0001000)
T1E38 000:243.719   CPU_WriteMem(4 bytes @ 0xE000EDFC)
T1E38 000:244.110   CPU_WriteMem(4 bytes @ 0xE0001058)
T1E38 000:244.478   CPU_ReadMem(4 bytes @ 0x00000004)
T1E38 000:244.825   CPU_ReadMem(4 bytes @ 0xE0002000)
T1E38 000:245.182   CPU_ReadMem(4 bytes @ 0xE0002008)
T1E38 000:245.497   CPU_ReadMem(4 bytes @ 0xE000200C)
T1E38 000:245.866   CPU_ReadMem(4 bytes @ 0xE0002010)
T1E38 000:246.195   CPU_ReadMem(4 bytes @ 0xE0002014)
T1E38 000:246.496   CPU_ReadMem(4 bytes @ 0xE0002018)
T1E38 000:246.843   CPU_ReadMem(4 bytes @ 0xE000201C)
T1E38 000:247.161   CPU_WriteMem(4 bytes @ 0xE0002000)
T1E38 000:247.469   CPU_WriteMem(4 bytes @ 0xE0002008)
T1E38 000:247.765   CPU_WriteMem(4 bytes @ 0xE000200C)
T1E38 000:248.057   CPU_WriteMem(4 bytes @ 0xE0002010)
T1E38 000:248.318   CPU_WriteMem(4 bytes @ 0xE0002014)
T1E38 000:248.606   CPU_WriteMem(4 bytes @ 0xE0002018)
T1E38 000:248.907   CPU_WriteMem(4 bytes @ 0xE000201C)
T1E38 000:249.261   CPU_ReadMem(4 bytes @ 0xE0001000)
T1E38 000:352.607   CPU_ReadMem(4 bytes @ 0x400FC040)
T1E38 000:352.931   CPU_WriteMem(4 bytes @ 0xE0002000)
T1E38 000:353.274   CPU_WriteMem(4 bytes @ 0xE0002008)
T1E38 000:353.605   CPU_WriteMem(4 bytes @ 0xE000200C)
T1E38 000:353.921   CPU_WriteMem(4 bytes @ 0xE0002010)
T1E38 000:354.229   CPU_WriteMem(4 bytes @ 0xE0002014)
T1E38 000:354.628   CPU_WriteMem(4 bytes @ 0xE0002018)
T1E38 000:355.336   CPU_WriteMem(4 bytes @ 0xE000201C)
T1E38 000:355.653   CPU_WriteMem(4 bytes @ 0xE0002000)
T1E38 000:355.954   CPU_ReadMem(4 bytes @ 0xE000EDFC)
T1E38 000:356.311   CPU_ReadMem(4 bytes @ 0xE0001000)
T1E38 000:356.613 - 285.722ms
T1E38 000:356.671 JLINK_HasError()
T1E38 000:356.680 JLINK_ReadReg(R15 (PC))
T1E38 000:356.697 - 0.019ms returns 0x000002A8
T1E38 000:356.704 JLINK_ReadReg(XPSR)
T1E38 000:356.722 - 0.020ms returns 0x61000000
T1E38 000:356.728 JLINK_Halt()
T1E38 000:356.732 - 0.006ms returns 0x00
T1E38 000:356.737 JLINK_ReadMemU32(0xE000EDF0, 0x1 Items)
T1E38 000:356.744   CPU_ReadMem(4 bytes @ 0xE000EDF0)
T1E38 000:357.028   Data:  03 00 03 00
T1E38 000:357.036   Debug reg: DHCSR
T1E38 000:357.042 - 0.307ms returns 1 (0x1)
T1E38 000:357.070 JLINK_WriteU32_64(0xE000EDF0, 0xA05F0003)
T1E38 000:357.078   Debug reg: DHCSR
T1E38 000:357.447   CPU_WriteMem(4 bytes @ 0xE000EDF0)
T1E38 000:357.726 - 0.659ms returns 0 (0x00000000)
T1E38 000:357.752 JLINK_WriteU32_64(0xE000EDFC, 0x01000000)
T1E38 000:357.758   Debug reg: DEMCR
T1E38 000:357.767   CPU_WriteMem(4 bytes @ 0xE000EDFC)
T1E38 000:358.041 - 0.293ms returns 0 (0x00000000)
T1E38 000:358.093 JLINK_GetHWStatus(...)
T1E38 000:358.350 - 0.263ms returns 0
T1E38 000:358.408 JLINK_GetNumBPUnits(Type = 0xFFFFFF00)
T1E38 000:358.415 - 0.009ms returns 0x06
T1E38 000:358.420 JLINK_GetNumBPUnits(Type = 0xF0)
T1E38 000:358.424 - 0.006ms returns 0x2000
T1E38 000:358.429 JLINK_GetNumWPUnits()
T1E38 000:358.433 - 0.006ms returns 4
T1E38 000:358.445 JLINK_GetSpeed()
T1E38 000:358.452 - 0.010ms returns 4000
T1E38 000:358.462 JLINK_ReadMemU32(0xE000E004, 0x1 Items)
T1E38 000:358.471   CPU_ReadMem(4 bytes @ 0xE000E004)
T1E38 000:358.842   Data:  01 00 00 00
T1E38 000:358.851 - 0.390ms returns 1 (0x1)
T1E38 000:358.876 JLINK_ReadMemU32(0xE000E004, 0x1 Items)
T1E38 000:358.885   CPU_ReadMem(4 bytes @ 0xE000E004)
T1E38 000:359.201   Data:  01 00 00 00
T1E38 000:359.210 - 0.335ms returns 1 (0x1)
T1E38 000:359.234 JLINK_WriteMemEx(0xE0001000, 0x0000001C Bytes, Flags = 0x02000004)
T1E38 000:359.240   Data:  01 00 00 00 00 00 00 00 00 00 00 00 00 00 00 00 ...
T1E38 000:359.250   CPU_WriteMem(28 bytes @ 0xE0001000)
T1E38 000:359.720 - 0.490ms returns 0x1C
T1E38 000:359.752 JLINK_HasError()
T1E38 000:359.758 JLINK_ReadReg(R15 (PC))
T1E38 000:359.764 - 0.007ms returns 0x000002A8
T1E38 000:359.769 JLINK_ReadReg(XPSR)
T1E38 000:359.773 - 0.006ms returns 0x61000000
T1E38 000:369.250 JLINK_ReadMemEx(0xE0001004, 0x4 Bytes, Flags = 0x02000000)
T1E38 000:369.287   Data:  00 00 00 00
T1E38 000:369.293   Debug reg: DWT_CYCCNT
T1E38 000:369.299 - 0.051ms returns 4 (0x4)
T1E38 000:375.445 JLINK_WriteU8(0x400FC040, 0x00000001)
T1E38 000:375.803   CPU_WriteMem(1 bytes @ 0x400FC040)
T1E38 000:376.298 - 0.859ms returns 0 (0x00000000)
T1E38 000:479.713 JLINK_HasError()
T1E38 000:479.733 JLINK_SetResetType(JLINKARM_CM3_RESET_TYPE_NORMAL)
T1E38 000:479.738 - 0.007ms returns JLINKARM_CM3_RESET_TYPE_HALT_AFTER_BTL
T1E38 000:479.744 JLINK_Reset()
T1E38 000:479.934   CPU_WriteMem(4 bytes @ 0xE000EDF0)
T1E38 000:480.307   CPU_WriteMem(4 bytes @ 0xE000EDFC)
T1E38 000:480.625   Reset: Halt core after reset via DEMCR.VC_CORERESET.
T1E38 000:481.046   Reset: Reset device via AIRCR.SYSRESETREQ.
T1E38 000:481.055   CPU_WriteMem(4 bytes @ 0xE000ED0C)
T1E38 000:534.495   CPU_ReadMem(4 bytes @ 0xE000EDF0)
T1E38 000:534.900   CPU_ReadMem(4 bytes @ 0xE000EDF0)
T1E38 000:535.291   CPU_WriteMem(4 bytes @ 0xE000EDF0)
T1E38 000:535.691   CPU_WriteMem(4 bytes @ 0xE000EDFC)
T1E38 000:541.702   CPU_ReadMem(4 bytes @ 0xE000EDF0)
T1E38 000:544.321   CPU_WriteMem(4 bytes @ 0xE000EDFC)
T1E38 000:544.687   CPU_WriteMem(4 bytes @ 0xE000EDFC)
T1E38 000:545.101   CPU_WriteMem(4 bytes @ 0xE000EDFC)
T1E38 000:545.481   CPU_WriteMem(4 bytes @ 0xE000EDFC)
T1E38 000:545.849   CPU_WriteMem(4 bytes @ 0xE000EDFC)
T1E38 000:546.249   CPU_WriteMem(4 bytes @ 0xE0001050)
T1E38 000:546.635   CPU_WriteMem(4 bytes @ 0xE0001054)
T1E38 000:547.005   CPU_WriteMem(4 bytes @ 0xE0001058)
T1E38 000:547.621   CPU_ReadMem(4 bytes @ 0xE0001000)
T1E38 000:651.702   CPU_WriteMem(4 bytes @ 0xE000EDFC)
T1E38 000:652.021   CPU_WriteMem(4 bytes @ 0xE0001058)
T1E38 000:652.351   CPU_ReadMem(4 bytes @ 0x00000004)
T1E38 000:652.654   CPU_ReadMem(4 bytes @ 0xE0002000)
T1E38 000:652.971   CPU_ReadMem(4 bytes @ 0xE0002008)
T1E38 000:653.274   CPU_ReadMem(4 bytes @ 0xE000200C)
T1E38 000:653.591   CPU_ReadMem(4 bytes @ 0xE0002010)
T1E38 000:653.858   CPU_ReadMem(4 bytes @ 0xE0002014)
T1E38 000:654.125   CPU_ReadMem(4 bytes @ 0xE0002018)
T1E38 000:654.454   CPU_ReadMem(4 bytes @ 0xE000201C)
T1E38 000:654.724   CPU_WriteMem(4 bytes @ 0xE0002000)
T1E38 000:654.994   CPU_WriteMem(4 bytes @ 0xE0002008)
T1E38 000:655.271   CPU_WriteMem(4 bytes @ 0xE000200C)
T1E38 000:655.596   CPU_WriteMem(4 bytes @ 0xE0002010)
T1E38 000:655.866   CPU_WriteMem(4 bytes @ 0xE0002014)
T1E38 000:656.132   CPU_WriteMem(4 bytes @ 0xE0002018)
T1E38 000:656.445   CPU_WriteMem(4 bytes @ 0xE000201C)
T1E38 000:656.752   CPU_ReadMem(4 bytes @ 0xE0001000)
T1E38 000:760.079   CPU_ReadMem(4 bytes @ 0x400FC040)
T1E38 000:760.482   CPU_WriteMem(4 bytes @ 0xE0002000)
T1E38 000:760.850   CPU_WriteMem(4 bytes @ 0xE0002008)
T1E38 000:761.198   CPU_WriteMem(4 bytes @ 0xE000200C)
T1E38 000:761.517   CPU_WriteMem(4 bytes @ 0xE0002010)
T1E38 000:761.799   CPU_WriteMem(4 bytes @ 0xE0002014)
T1E38 000:762.079   CPU_WriteMem(4 bytes @ 0xE0002018)
T1E38 000:762.373   CPU_WriteMem(4 bytes @ 0xE000201C)
T1E38 000:762.641   CPU_WriteMem(4 bytes @ 0xE0002000)
T1E38 000:762.960   CPU_ReadMem(4 bytes @ 0xE000EDFC)
T1E38 000:763.229   CPU_ReadMem(4 bytes @ 0xE0001000)
T1E38 000:763.496 - 283.757ms
T1E38 000:763.640 JLINK_HasError()
T1E38 000:763.648 JLINK_ReadReg(R15 (PC))
T1E38 000:763.654 - 0.008ms returns 0x000002A8
T1E38 000:763.659 JLINK_ReadReg(XPSR)
T1E38 000:763.664 - 0.006ms returns 0x61000000
T1E38 000:764.033 JLINK_ReadMemEx(0x000002A8, 0x3C Bytes, Flags = 0x02000000)
T1E38 000:764.045   CPU_ReadMem(128 bytes @ 0x00000280)
T1E38 000:764.875    -- Updating C cache (128 bytes @ 0x00000280)
T1E38 000:764.884    -- Read from C cache (60 bytes @ 0x000002A8)
T1E38 000:764.891   Data:  06 48 80 47 06 48 00 47 FE E7 FE E7 FE E7 FE E7 ...
T1E38 000:764.911 - 0.880ms returns 60 (0x3C)
T1E38 000:764.936 JLINK_ReadMemEx(0x000002A8, 0x2 Bytes, Flags = 0x02000000)
T1E38 000:764.943    -- Read from C cache (2 bytes @ 0x000002A8)
T1E38 000:764.949   Data:  06 48
T1E38 000:764.955 - 0.020ms returns 2 (0x2)
T1E38 000:764.960 JLINK_ReadMemEx(0x000002AA, 0x2 Bytes, Flags = 0x02000000)
T1E38 000:764.965    -- Read from C cache (2 bytes @ 0x000002AA)
T1E38 000:764.971   Data:  80 47
T1E38 000:764.977 - 0.018ms returns 2 (0x2)
T1E38 003:590.065 JLINK_ReadMemEx(0x000002AA, 0x2 Bytes, Flags = 0x02000000)
T1E38 003:590.090    -- Read from C cache (2 bytes @ 0x000002AA)
T1E38 003:590.097   Data:  80 47
T1E38 003:590.103 - 0.040ms returns 2 (0x2)
T1E38 003:590.109 JLINK_ReadMemEx(0x000002AC, 0x3C Bytes, Flags = 0x02000000)
T1E38 003:590.114    -- Read from C cache (60 bytes @ 0x000002AC)
T1E38 003:590.121   Data:  06 48 00 47 FE E7 FE E7 FE E7 FE E7 FE E7 FE E7 ...
T1E38 003:590.127 - 0.019ms returns 60 (0x3C)
T1E38 003:590.132 JLINK_ReadMemEx(0x000002AC, 0x2 Bytes, Flags = 0x02000000)
T1E38 003:590.137    -- Read from C cache (2 bytes @ 0x000002AC)
T1E38 003:590.143   Data:  06 48
T1E38 003:590.149 - 0.019ms returns 2 (0x2)
T1E38 003:877.893 JLINK_HasError()
T1E38 003:877.913 JLINK_ReadReg(R0)
T1E38 003:878.331 - 0.422ms returns 0x00000000
T1E38 003:878.359 JLINK_ReadReg(R1)
T1E38 003:878.365 - 0.008ms returns 0x000002A9
T1E38 003:878.371 JLINK_ReadReg(R2)
T1E38 003:878.375 - 0.006ms returns 0x00000000
T1E38 003:878.380 JLINK_ReadReg(R3)
T1E38 003:878.384 - 0.006ms returns 0x00000000
T1E38 003:878.389 JLINK_ReadReg(R4)
T1E38 003:878.394 - 0.006ms returns 0x3456ABCD
T1E38 003:878.399 JLINK_ReadReg(R5)
T1E38 003:878.403 - 0.006ms returns 0x3456ABCD
T1E38 003:878.408 JLINK_ReadReg(R6)
T1E38 003:878.412 - 0.006ms returns 0x12345678
T1E38 003:878.417 JLINK_ReadReg(R7)
T1E38 003:878.421 - 0.006ms returns 0x00000000
T1E38 003:878.426 JLINK_ReadReg(R8)
T1E38 003:878.437 - 0.012ms returns 0x00000000
T1E38 003:878.442 JLINK_ReadReg(R9)
T1E38 003:878.446 - 0.006ms returns 0x100001DC
T1E38 003:878.451 JLINK_ReadReg(R10)
T1E38 003:878.456 - 0.006ms returns 0x00000000
T1E38 003:878.460 JLINK_ReadReg(R11)
T1E38 003:878.465 - 0.006ms returns 0x00000000
T1E38 003:878.470 JLINK_ReadReg(R12)
T1E38 003:878.474 - 0.006ms returns 0x00000000
T1E38 003:878.479 JLINK_ReadReg(R13 (SP))
T1E38 003:878.484 - 0.006ms returns 0x10003C70
T1E38 003:878.489 JLINK_ReadReg(R14)
T1E38 003:878.493 - 0.006ms returns 0x1FFF0EA5
T1E38 003:878.498 JLINK_ReadReg(R15 (PC))
T1E38 003:878.502 - 0.006ms returns 0x000002A8
T1E38 003:878.507 JLINK_ReadReg(XPSR)
T1E38 003:878.512 - 0.006ms returns 0x61000000
T1E38 003:878.516 JLINK_ReadReg(MSP)
T1E38 003:878.521 - 0.006ms returns 0x10003C70
T1E38 003:878.526 JLINK_ReadReg(PSP)
T1E38 003:878.530 - 0.006ms returns 0x10000FE0
T1E38 003:878.535 JLINK_ReadReg(CFBP)
T1E38 003:878.539 - 0.006ms returns 0x00000000
T1E38 003:878.550 JLINK_ReadMemEx(0x400FC104, 0x4 Bytes, Flags = 0x02000000)
T1E38 003:878.561   CPU_ReadMem(4 bytes @ 0x400FC104)
T1E38 003:878.889   Data:  01 00 00 00
T1E38 003:878.897 - 0.350ms returns 4 (0x4)
T1E38 003:878.957 JLINK_ReadMemEx(0x400FC100, 0x4 Bytes, Flags = 0x02000000)
T1E38 003:878.982   CPU_ReadMem(4 bytes @ 0x400FC100)
T1E38 003:879.303   Data:  00 00 00 00
T1E38 003:879.311 - 0.356ms returns 4 (0x4)
T1E38 003:879.353 JLINK_ReadMemEx(0x400FC1A8, 0x4 Bytes, Flags = 0x02000000)
T1E38 003:879.363   CPU_ReadMem(4 bytes @ 0x400FC1A8)
T1E38 003:879.658   Data:  04 00 00 00
T1E38 003:879.666 - 0.316ms returns 4 (0x4)
T1E38 003:879.690 JLINK_ReadMemEx(0x400FC1C8, 0x4 Bytes, Flags = 0x02000000)
T1E38 003:879.698   CPU_ReadMem(4 bytes @ 0x400FC1C8)
T1E38 003:880.022   Data:  00 00 00 00
T1E38 003:880.035 - 0.346ms returns 4 (0x4)
T1E38 003:880.079 JLINK_ReadMemEx(0x400FC10C, 0x4 Bytes, Flags = 0x02000000)
T1E38 003:880.090   CPU_ReadMem(4 bytes @ 0x400FC10C)
T1E38 003:880.455   Data:  00 00 00 00
T1E38 003:880.464 - 0.387ms returns 4 (0x4)
T1E38 003:880.490 JLINK_ReadMemEx(0x400FC088, 0x4 Bytes, Flags = 0x02000000)
T1E38 003:880.499   CPU_ReadMem(4 bytes @ 0x400FC088)
T1E38 003:880.796   Data:  00 00 00 00
T1E38 003:880.803 - 0.315ms returns 4 (0x4)
T1E38 003:880.827 JLINK_ReadMemEx(0x400FC108, 0x4 Bytes, Flags = 0x02000000)
T1E38 003:880.835   CPU_ReadMem(4 bytes @ 0x400FC108)
T1E38 003:881.116   Data:  00 00 00 00
T1E38 003:881.124 - 0.298ms returns 4 (0x4)
T1E38 003:881.148 JLINK_ReadMemEx(0x400FC1C8, 0x4 Bytes, Flags = 0x02000000)
T1E38 003:881.156   CPU_ReadMem(4 bytes @ 0x400FC1C8)
T1E38 003:881.441   Data:  00 00 00 00
T1E38 003:881.448 - 0.302ms returns 4 (0x4)
T1E38 003:881.473 JLINK_ReadMemEx(0x400FC1C8, 0x4 Bytes, Flags = 0x02000000)
T1E38 003:881.481   CPU_ReadMem(4 bytes @ 0x400FC1C8)
T1E38 003:881.756   Data:  00 00 00 00
T1E38 003:881.764 - 0.293ms returns 4 (0x4)
T1E38 003:881.787 JLINK_ReadMemEx(0x400FC108, 0x4 Bytes, Flags = 0x02000000)
T1E38 003:881.795   CPU_ReadMem(4 bytes @ 0x400FC108)
T1E38 003:882.067   Data:  00 00 00 00
T1E38 003:882.075 - 0.289ms returns 4 (0x4)
T1E38 003:882.099 JLINK_ReadMemEx(0x400FC108, 0x4 Bytes, Flags = 0x02000000)
T1E38 003:882.107   CPU_ReadMem(4 bytes @ 0x400FC108)
T1E38 003:882.418   Data:  00 00 00 00
T1E38 003:882.426 - 0.328ms returns 4 (0x4)
T1E38 003:886.115 JLINK_ReadMemEx(0x400FC104, 0x4 Bytes, Flags = 0x02000000)
T1E38 003:886.134   CPU_ReadMem(4 bytes @ 0x400FC104)
T1E38 003:886.485   Data:  01 00 00 00
T1E38 003:886.493 - 0.380ms returns 4 (0x4)
T1E38 003:886.518 JLINK_ReadMemEx(0x400FC100, 0x4 Bytes, Flags = 0x02000000)
T1E38 003:886.527   CPU_ReadMem(4 bytes @ 0x400FC100)
T1E38 003:886.793   Data:  00 00 00 00
T1E38 003:886.801 - 0.284ms returns 4 (0x4)
T1E38 003:886.825 JLINK_ReadMemEx(0x400FC1A8, 0x4 Bytes, Flags = 0x02000000)
T1E38 003:886.833   CPU_ReadMem(4 bytes @ 0x400FC1A8)
T1E38 003:887.101   Data:  04 00 00 00
T1E38 003:887.109 - 0.286ms returns 4 (0x4)
T1E38 003:887.132 JLINK_ReadMemEx(0x400FC1C8, 0x4 Bytes, Flags = 0x02000000)
T1E38 003:887.140   CPU_ReadMem(4 bytes @ 0x400FC1C8)
T1E38 003:887.419   Data:  00 00 00 00
T1E38 003:887.427 - 0.296ms returns 4 (0x4)
T1E38 003:887.451 JLINK_ReadMemEx(0x400FC10C, 0x4 Bytes, Flags = 0x02000000)
T1E38 003:887.459   CPU_ReadMem(4 bytes @ 0x400FC10C)
T1E38 003:887.719   Data:  00 00 00 00
T1E38 003:887.726 - 0.277ms returns 4 (0x4)
T1E38 003:887.777 JLINK_ReadMemEx(0x400FC104, 0x4 Bytes, Flags = 0x02000000)
T1E38 003:887.786   CPU_ReadMem(4 bytes @ 0x400FC104)
T1E38 003:888.045   Data:  01 00 00 00
T1E38 003:888.053 - 0.277ms returns 4 (0x4)
T1E38 003:888.077 JLINK_ReadMemEx(0x400FC100, 0x4 Bytes, Flags = 0x02000000)
T1E38 003:888.085   CPU_ReadMem(4 bytes @ 0x400FC100)
T1E38 003:888.417   Data:  00 00 00 00
T1E38 003:888.425 - 0.350ms returns 4 (0x4)
T1E38 003:888.448 JLINK_ReadMemEx(0x400FC1A8, 0x4 Bytes, Flags = 0x02000000)
T1E38 003:888.456   CPU_ReadMem(4 bytes @ 0x400FC1A8)
T1E38 003:888.715   Data:  04 00 00 00
T1E38 003:888.722 - 0.276ms returns 4 (0x4)
T1E38 003:888.746 JLINK_ReadMemEx(0x400FC1C8, 0x4 Bytes, Flags = 0x02000000)
T1E38 003:888.753   CPU_ReadMem(4 bytes @ 0x400FC1C8)
T1E38 003:889.009   Data:  00 00 00 00
T1E38 003:889.017 - 0.273ms returns 4 (0x4)
T1E38 003:889.041 JLINK_ReadMemEx(0x400FC10C, 0x4 Bytes, Flags = 0x02000000)
T1E38 003:889.048   CPU_ReadMem(4 bytes @ 0x400FC10C)
T1E38 003:889.304   Data:  00 00 00 00
T1E38 003:889.316 - 0.277ms returns 4 (0x4)
T1E38 003:890.844 JLINK_ReadMemEx(0x10002D4F, 0x1 Bytes, Flags = 0x02000000)
T1E38 003:890.856   CPU_ReadMem(64 bytes @ 0x10002D40)
T1E38 003:891.535    -- Updating C cache (64 bytes @ 0x10002D40)
T1E38 003:891.544    -- Read from C cache (1 bytes @ 0x10002D4F)
T1E38 003:891.550   Data:  85
T1E38 003:891.556 - 0.714ms returns 1 (0x1)
T1E38 003:891.651 JLINK_ReadMemEx(0x10002D4F, 0x1 Bytes, Flags = 0x02000000)
T1E38 003:891.660    -- Read from C cache (1 bytes @ 0x10002D4F)
T1E38 003:891.666   Data:  85
T1E38 003:891.672 - 0.023ms returns 1 (0x1)
T1E38 003:891.685 JLINK_ReadMemEx(0x10002D4F, 0x1 Bytes, Flags = 0x02000000)
T1E38 003:891.691    -- Read from C cache (1 bytes @ 0x10002D4F)
T1E38 003:891.697   Data:  85
T1E38 003:891.703 - 0.020ms returns 1 (0x1)
T1E38 003:893.232 JLINK_ReadMemEx(0x1000308B, 0x20 Bytes, Flags = 0x02000000)
T1E38 003:893.244   CPU_ReadMem(64 bytes @ 0x10003080)
T1E38 003:893.979    -- Updating C cache (64 bytes @ 0x10003080)
T1E38 003:893.990    -- Read from C cache (32 bytes @ 0x1000308B)
T1E38 003:893.997   Data:  A4 FC A8 31 26 B9 61 AA 54 66 D3 FA 8F 47 19 60 ...
T1E38 003:894.003 - 0.773ms returns 32 (0x20)
T1E38 003:909.974 JLINK_ReadMemEx(0x100026AC, 0x4 Bytes, Flags = 0x02000000)
T1E38 003:909.998   CPU_ReadMem(64 bytes @ 0x10002680)
T1E38 003:910.718    -- Updating C cache (64 bytes @ 0x10002680)
T1E38 003:910.727    -- Read from C cache (4 bytes @ 0x100026AC)
T1E38 003:910.734   Data:  76 0F 7D CE
T1E38 003:910.741 - 0.769ms returns 4 (0x4)
T1E38 003:910.788 JLINK_ReadMemEx(0x100026AC, 0x4 Bytes, Flags = 0x02000000)
T1E38 003:910.796    -- Read from C cache (4 bytes @ 0x100026AC)
T1E38 003:910.803   Data:  76 0F 7D CE
T1E38 003:910.809 - 0.022ms returns 4 (0x4)
T1E38 003:910.821 JLINK_ReadMemEx(0x100026AC, 0x4 Bytes, Flags = 0x02000000)
T1E38 003:910.827    -- Read from C cache (4 bytes @ 0x100026AC)
T1E38 003:910.833   Data:  76 0F 7D CE
T1E38 003:910.839 - 0.020ms returns 4 (0x4)
T1E38 003:910.852 JLINK_ReadMemEx(0xCE7D0F76, 0x20 Bytes, Flags = 0x02000000)
T1E38 003:910.860   CPU_ReadMem(32 bytes @ 0xCE7D0F76)
T1E38 003:911.300   failed
T1E38 003:911.308 - 0.458ms returns -1 (0xFFFFFFFF)
T1E38 003:911.332 JLINK_ReadMemEx(0xCE7D0F76, 0x20 Bytes, Flags = 0x02000000)
T1E38 003:911.340   CPU_ReadMem(32 bytes @ 0xCE7D0F76)
T1E38 003:911.767   failed
T1E38 003:911.775 - 0.445ms returns -1 (0xFFFFFFFF)
T1E38 003:911.798 JLINK_ReadMemEx(0xCE7D0F76, 0xA Bytes, Flags = 0x02000000)
T1E38 003:911.806   CPU_ReadMem(10 bytes @ 0xCE7D0F76)
T1E38 003:912.268   failed
T1E38 003:912.290 - 0.494ms returns -1 (0xFFFFFFFF)
T1E38 003:912.315 JLINK_ReadMemEx(0xCE7D0F76, 0x2 Bytes, Flags = 0x02000000)
T1E38 003:912.323   CPU_ReadMem(2 bytes @ 0xCE7D0F76)
T1E38 003:912.736   failed
T1E38 003:912.743 - 0.430ms returns -1 (0xFFFFFFFF)
T1E38 003:912.766 JLINK_ReadMemEx(0xCE7D0F76, 0x2 Bytes, Flags = 0x02000000)
T1E38 003:912.774   CPU_ReadMem(2 bytes @ 0xCE7D0F76)
T1E38 003:913.171   failed
T1E38 003:913.178 - 0.414ms returns -1 (0xFFFFFFFF)
T1E38 003:913.202 JLINK_ReadMemEx(0xCE7D0F76, 0x1 Bytes, Flags = 0x02000000)
T1E38 003:913.210   CPU_ReadMem(1 bytes @ 0xCE7D0F76)
T1E38 003:913.670   failed
T1E38 003:913.678 - 0.478ms returns -1 (0xFFFFFFFF)
T1E38 003:919.845 JLINK_ReadMemEx(0x10002C14, 0x4 Bytes, Flags = 0x02000000)
T1E38 003:919.865   CPU_ReadMem(64 bytes @ 0x10002C00)
T1E38 003:920.488    -- Updating C cache (64 bytes @ 0x10002C00)
T1E38 003:920.498    -- Read from C cache (4 bytes @ 0x10002C14)
T1E38 003:920.504   Data:  51 E1 CF 36
T1E38 003:920.510 - 0.667ms returns 4 (0x4)
T1E38 003:920.585 JLINK_ReadMemEx(0x10002C14, 0x4 Bytes, Flags = 0x02000000)
T1E38 003:920.594    -- Read from C cache (4 bytes @ 0x10002C14)
T1E38 003:920.600   Data:  51 E1 CF 36
T1E38 003:920.606 - 0.023ms returns 4 (0x4)
T1E38 003:920.620 JLINK_ReadMemEx(0x10002C14, 0x4 Bytes, Flags = 0x02000000)
T1E38 003:920.626    -- Read from C cache (4 bytes @ 0x10002C14)
T1E38 003:920.632   Data:  51 E1 CF 36
T1E38 003:920.642 - 0.024ms returns 4 (0x4)
T1E38 003:921.415 JLINK_ReadMemEx(0x10002C14, 0x4 Bytes, Flags = 0x02000000)
T1E38 003:921.426    -- Read from C cache (4 bytes @ 0x10002C14)
T1E38 003:921.432   Data:  51 E1 CF 36
T1E38 003:921.438 - 0.025ms returns 4 (0x4)
T1E38 003:921.483 JLINK_ReadMemEx(0x10002C14, 0x4 Bytes, Flags = 0x02000000)
T1E38 003:921.490    -- Read from C cache (4 bytes @ 0x10002C14)
T1E38 003:921.496   Data:  51 E1 CF 36
T1E38 003:921.502 - 0.020ms returns 4 (0x4)
T1E38 003:921.514 JLINK_ReadMemEx(0x10002C14, 0x4 Bytes, Flags = 0x02000000)
T1E38 003:921.520    -- Read from C cache (4 bytes @ 0x10002C14)
T1E38 003:921.526   Data:  51 E1 CF 36
T1E38 003:921.532 - 0.020ms returns 4 (0x4)
T1E38 003:926.069 JLINK_ReadMemEx(0x10002DF4, 0x2 Bytes, Flags = 0x02000000)
T1E38 003:926.085   CPU_ReadMem(64 bytes @ 0x10002DC0)
T1E38 003:926.761    -- Updating C cache (64 bytes @ 0x10002DC0)
T1E38 003:926.769    -- Read from C cache (2 bytes @ 0x10002DF4)
T1E38 003:926.790   Data:  C3 66
T1E38 003:926.805 - 0.739ms returns 2 (0x2)
T1E38 003:926.872 JLINK_ReadMemEx(0x10002DF4, 0x2 Bytes, Flags = 0x02000000)
T1E38 003:926.880    -- Read from C cache (2 bytes @ 0x10002DF4)
T1E38 003:926.886   Data:  C3 66
T1E38 003:926.892 - 0.022ms returns 2 (0x2)
T1E38 003:926.904 JLINK_ReadMemEx(0x10002DF4, 0x2 Bytes, Flags = 0x02000000)
T1E38 003:926.910    -- Read from C cache (2 bytes @ 0x10002DF4)
T1E38 003:926.916   Data:  C3 66
T1E38 003:926.921 - 0.019ms returns 2 (0x2)
T435C 004:109.639 JLINK_ReadMemEx(0x000002A8, 0x2 Bytes, Flags = 0x02000000)
T435C 004:109.672    -- Read from C cache (2 bytes @ 0x000002A8)
T435C 004:109.679   Data:  06 48
T435C 004:109.685 - 0.047ms returns 2 (0x2)
T435C 004:109.691 JLINK_HasError()
T435C 004:109.699 JLINK_SetBPEx(Addr = 0x0000012A, Type = 0xFFFFFFF2)
T435C 004:109.706 - 0.009ms returns 0x00000001
T435C 004:109.711 JLINK_HasError()
T435C 004:109.716 JLINK_HasError()
T435C 004:109.722 JLINK_Go()
T435C 004:109.731   CPU_WriteMem(4 bytes @ 0xE0002000)
T435C 004:110.196   CPU_ReadMem(4 bytes @ 0xE0001000)
T435C 004:110.481   CPU_WriteMem(4 bytes @ 0xE0002008)
T435C 004:110.492   CPU_WriteMem(4 bytes @ 0xE000200C)
T435C 004:110.499   CPU_WriteMem(4 bytes @ 0xE0002010)
T435C 004:110.505   CPU_WriteMem(4 bytes @ 0xE0002014)
T435C 004:110.511   CPU_WriteMem(4 bytes @ 0xE0002018)
T435C 004:110.517   CPU_WriteMem(4 bytes @ 0xE000201C)
T435C 004:111.510   CPU_WriteMem(4 bytes @ 0xE0001004)
T435C 004:112.233 - 2.520ms
T435C 004:213.055 JLINK_HasError()
T435C 004:213.074 JLINK_IsHalted()
T435C 004:215.331   CPU_ReadMem(4 bytes @ 0x400FC040)
T435C 004:215.627 - 2.558ms returns TRUE
T435C 004:215.657 JLINK_HasError()
T435C 004:215.664 JLINK_Halt()
T435C 004:215.669 - 0.006ms returns 0x00
T435C 004:215.674 JLINK_IsHalted()
T435C 004:215.678 - 0.006ms returns TRUE
T435C 004:215.683 JLINK_IsHalted()
T435C 004:215.687 - 0.006ms returns TRUE
T435C 004:215.692 JLINK_IsHalted()
T435C 004:215.696 - 0.006ms returns TRUE
T435C 004:215.702 JLINK_HasError()
T435C 004:215.707 JLINK_ReadReg(R15 (PC))
T435C 004:215.714 - 0.009ms returns 0x0000012A
T435C 004:215.719 JLINK_ReadReg(XPSR)
T435C 004:215.724 - 0.006ms returns 0x61000000
T435C 004:215.746 JLINK_HasError()
T435C 004:215.751 JLINK_ClrBPEx(BPHandle = 0x00000001)
T435C 004:215.756 - 0.007ms returns 0x00
T435C 004:215.761 JLINK_HasError()
T435C 004:215.766 JLINK_HasError()
T435C 004:215.772 JLINK_ReadMemU32(0xE000ED30, 0x1 Items)
T435C 004:215.779   CPU_ReadMem(4 bytes @ 0xE000ED30)
T435C 004:216.096   Data:  02 00 00 00
T435C 004:216.110 - 0.340ms returns 1 (0x1)
T435C 004:216.143 JLINK_ReadMemU32(0xE0001028, 0x1 Items)
T435C 004:216.154   CPU_ReadMem(4 bytes @ 0xE0001028)
T435C 004:216.502   Data:  00 00 00 00
T435C 004:216.512   Debug reg: DWT_FUNC[0]
T435C 004:216.518 - 0.377ms returns 1 (0x1)
T435C 004:216.544 JLINK_ReadMemU32(0xE0001038, 0x1 Items)
T435C 004:216.553   CPU_ReadMem(4 bytes @ 0xE0001038)
T435C 004:216.835   Data:  00 02 00 00
T435C 004:216.843   Debug reg: DWT_FUNC[1]
T435C 004:216.901 - 0.360ms returns 1 (0x1)
T435C 004:216.928 JLINK_ReadMemU32(0xE0001048, 0x1 Items)
T435C 004:216.937   CPU_ReadMem(4 bytes @ 0xE0001048)
T435C 004:217.200   Data:  00 00 00 00
T435C 004:217.208   Debug reg: DWT_FUNC[2]
T435C 004:217.214 - 0.288ms returns 1 (0x1)
T435C 004:217.238 JLINK_ReadMemU32(0xE0001058, 0x1 Items)
T435C 004:217.246   CPU_ReadMem(4 bytes @ 0xE0001058)
T435C 004:217.613   Data:  00 00 00 01
T435C 004:217.626   Debug reg: DWT_FUNC[3]
T435C 004:217.632 - 0.396ms returns 1 (0x1)
T435C 004:217.755 JLINK_HasError()
T435C 004:217.769 JLINK_ReadReg(R0)
T435C 004:217.776 - 0.009ms returns 0x0000012B
T435C 004:217.782 JLINK_ReadReg(R1)
T435C 004:217.786 - 0.006ms returns 0x10003C70
T435C 004:217.791 JLINK_ReadReg(R2)
T435C 004:217.796 - 0.006ms returns 0x00000000
T435C 004:217.802 JLINK_ReadReg(R3)
T435C 004:217.807 - 0.006ms returns 0x0000A68D
T435C 004:217.812 JLINK_ReadReg(R4)
T435C 004:217.816 - 0.007ms returns 0x0006E96C
T435C 004:217.822 JLINK_ReadReg(R5)
T435C 004:217.827 - 0.006ms returns 0x0006E96C
T435C 004:217.832 JLINK_ReadReg(R6)
T435C 004:217.836 - 0.007ms returns 0x12345678
T435C 004:217.841 JLINK_ReadReg(R7)
T435C 004:217.846 - 0.006ms returns 0x00000000
T435C 004:217.851 JLINK_ReadReg(R8)
T435C 004:217.856 - 0.006ms returns 0x00000000
T435C 004:217.861 JLINK_ReadReg(R9)
T435C 004:217.865 - 0.006ms returns 0x100001DC
T435C 004:217.870 JLINK_ReadReg(R10)
T435C 004:217.874 - 0.006ms returns 0x00000000
T435C 004:217.879 JLINK_ReadReg(R11)
T435C 004:217.884 - 0.006ms returns 0x00000000
T435C 004:217.889 JLINK_ReadReg(R12)
T435C 004:217.893 - 0.006ms returns 0x00000000
T435C 004:217.899 JLINK_ReadReg(R13 (SP))
T435C 004:217.903 - 0.006ms returns 0x10003C70
T435C 004:217.908 JLINK_ReadReg(R14)
T435C 004:217.913 - 0.006ms returns 0x0000A619
T435C 004:217.918 JLINK_ReadReg(R15 (PC))
T435C 004:217.923 - 0.007ms returns 0x0000012A
T435C 004:217.928 JLINK_ReadReg(XPSR)
T435C 004:217.932 - 0.006ms returns 0x61000000
T435C 004:217.937 JLINK_ReadReg(MSP)
T435C 004:217.942 - 0.006ms returns 0x10003C70
T435C 004:217.947 JLINK_ReadReg(PSP)
T435C 004:217.952 - 0.006ms returns 0x10000FE0
T435C 004:217.957 JLINK_ReadReg(CFBP)
T435C 004:217.962 - 0.007ms returns 0x00000000
T1E38 004:219.141 JLINK_ReadMemEx(0x400FC104, 0x4 Bytes, Flags = 0x02000000)
T1E38 004:219.155   CPU_ReadMem(4 bytes @ 0x400FC104)
T1E38 004:219.454   Data:  01 01 00 00
T1E38 004:219.462 - 0.323ms returns 4 (0x4)
T1E38 004:219.488 JLINK_ReadMemEx(0x400FC100, 0x4 Bytes, Flags = 0x02000000)
T1E38 004:219.496   CPU_ReadMem(4 bytes @ 0x400FC100)
T1E38 004:219.844   Data:  01 00 00 00
T1E38 004:219.852 - 0.366ms returns 4 (0x4)
T1E38 004:219.877 JLINK_ReadMemEx(0x400FC1A8, 0x4 Bytes, Flags = 0x02000000)
T1E38 004:219.886   CPU_ReadMem(4 bytes @ 0x400FC1A8)
T1E38 004:220.220   Data:  02 00 00 00
T1E38 004:220.228 - 0.352ms returns 4 (0x4)
T1E38 004:220.250 JLINK_ReadMemEx(0x400FC1C8, 0x4 Bytes, Flags = 0x02000000)
T1E38 004:220.258   CPU_ReadMem(4 bytes @ 0x400FC1C8)
T1E38 004:220.625   Data:  00 03 00 00
T1E38 004:220.633 - 0.384ms returns 4 (0x4)
T1E38 004:220.656 JLINK_ReadMemEx(0x400FC088, 0x4 Bytes, Flags = 0x02000000)
T1E38 004:220.664   CPU_ReadMem(4 bytes @ 0x400FC088)
T1E38 004:220.990   Data:  09 05 00 00
T1E38 004:220.997 - 0.343ms returns 4 (0x4)
T1E38 004:221.021 JLINK_ReadMemEx(0x400FC10C, 0x4 Bytes, Flags = 0x02000000)
T1E38 004:221.030   CPU_ReadMem(4 bytes @ 0x400FC10C)
T1E38 004:221.349   Data:  01 00 00 00
T1E38 004:221.357 - 0.338ms returns 4 (0x4)
T1E38 004:221.381 JLINK_ReadMemEx(0x400FC1A0, 0x4 Bytes, Flags = 0x02000000)
T1E38 004:221.389   CPU_ReadMem(4 bytes @ 0x400FC1A0)
T1E38 004:221.705   Data:  61 00 00 00
T1E38 004:221.713 - 0.334ms returns 4 (0x4)
T1E38 004:221.736 JLINK_ReadMemEx(0x400FC108, 0x4 Bytes, Flags = 0x02000000)
T1E38 004:221.744   CPU_ReadMem(4 bytes @ 0x400FC108)
T1E38 004:222.050   Data:  01 02 00 00
T1E38 004:222.058 - 0.323ms returns 4 (0x4)
T1E38 004:222.081 JLINK_ReadMemEx(0x400FC0A8, 0x4 Bytes, Flags = 0x02000000)
T1E38 004:222.092   CPU_ReadMem(4 bytes @ 0x400FC0A8)
T1E38 004:222.424   Data:  23 05 00 00
T1E38 004:222.433 - 0.353ms returns 4 (0x4)
T1E38 004:222.458 JLINK_ReadMemEx(0x400FC1C8, 0x4 Bytes, Flags = 0x02000000)
T1E38 004:222.467   CPU_ReadMem(4 bytes @ 0x400FC1C8)
T1E38 004:222.737   Data:  00 03 00 00
T1E38 004:222.749 - 0.293ms returns 4 (0x4)
T1E38 004:222.787 JLINK_ReadMemEx(0x400FC10C, 0x4 Bytes, Flags = 0x02000000)
T1E38 004:222.798   CPU_ReadMem(4 bytes @ 0x400FC10C)
T1E38 004:223.075   Data:  01 00 00 00
T1E38 004:223.085 - 0.299ms returns 4 (0x4)
T1E38 004:223.113 JLINK_ReadMemEx(0x400FC1A0, 0x4 Bytes, Flags = 0x02000000)
T1E38 004:223.123   CPU_ReadMem(4 bytes @ 0x400FC1A0)
T1E38 004:223.427   Data:  61 00 00 00
T1E38 004:223.439 - 0.327ms returns 4 (0x4)
T1E38 004:223.506 JLINK_ReadMemEx(0x10002D4F, 0x1 Bytes, Flags = 0x02000000)
T1E38 004:223.518   CPU_ReadMem(64 bytes @ 0x10002D40)
T1E38 004:224.044    -- Updating C cache (64 bytes @ 0x10002D40)
T1E38 004:224.054    -- Read from C cache (1 bytes @ 0x10002D4F)
T1E38 004:224.070   Data:  00
T1E38 004:224.085 - 0.582ms returns 1 (0x1)
T1E38 004:224.147 JLINK_ReadMemEx(0x1000308B, 0x20 Bytes, Flags = 0x02000000)
T1E38 004:224.158   CPU_ReadMem(64 bytes @ 0x10003080)
T1E38 004:224.669    -- Updating C cache (64 bytes @ 0x10003080)
T1E38 004:224.678    -- Read from C cache (32 bytes @ 0x1000308B)
T1E38 004:224.685   Data:  00 00 00 00 00 00 00 00 00 00 00 00 00 00 00 00 ...
T1E38 004:224.691 - 0.545ms returns 32 (0x20)
T1E38 004:225.225 JLINK_ReadMemEx(0x0000012A, 0x2 Bytes, Flags = 0x02000000)
T1E38 004:225.237   CPU_ReadMem(64 bytes @ 0x00000100)
T1E38 004:225.829    -- Updating C cache (64 bytes @ 0x00000100)
T1E38 004:225.840    -- Read from C cache (2 bytes @ 0x0000012A)
T1E38 004:225.846   Data:  86 B0
T1E38 004:225.853 - 0.629ms returns 2 (0x2)
T1E38 004:225.882 JLINK_ReadMemEx(0x0000012C, 0x3C Bytes, Flags = 0x02000000)
T1E38 004:225.890   CPU_ReadMem(64 bytes @ 0x00000140)
T1E38 004:226.501    -- Updating C cache (64 bytes @ 0x00000140)
T1E38 004:226.509    -- Read from C cache (60 bytes @ 0x0000012C)
T1E38 004:226.516   Data:  00 20 08 F0 82 F8 04 46 00 20 02 90 03 90 04 90 ...
T1E38 004:226.522 - 0.642ms returns 60 (0x3C)
T1E38 004:226.549 JLINK_ReadMemEx(0x0000012C, 0x2 Bytes, Flags = 0x02000000)
T1E38 004:226.556    -- Read from C cache (2 bytes @ 0x0000012C)
T1E38 004:226.563   Data:  00 20
T1E38 004:226.569 - 0.021ms returns 2 (0x2)
T435C 004:866.907 JLINK_ReadMemEx(0x0000012A, 0x2 Bytes, Flags = 0x02000000)
T435C 004:866.925    -- Read from C cache (2 bytes @ 0x0000012A)
T435C 004:866.932   Data:  86 B0
T435C 004:866.943 - 0.038ms returns 2 (0x2)
T435C 004:866.955 JLINK_HasError()
T435C 004:866.961 JLINK_HasError()
T435C 004:866.967 JLINK_Go()
T435C 004:867.413   CPU_ReadMem(4 bytes @ 0xE0001000)
T435C 004:867.766   CPU_WriteMem(4 bytes @ 0xE0002008)
T435C 004:868.603 - 1.643ms
T435C 004:969.539 JLINK_HasError()
T435C 004:969.554 JLINK_IsHalted()
T435C 004:969.929 - 0.382ms returns FALSE
T435C 005:070.453 JLINK_HasError()
T435C 005:070.531 JLINK_IsHalted()
T435C 005:071.515 - 1.021ms returns FALSE
T435C 005:172.045 JLINK_HasError()
T435C 005:172.061 JLINK_IsHalted()
T435C 005:172.608 - 0.554ms returns FALSE
T435C 005:272.733 JLINK_HasError()
T435C 005:272.750 JLINK_IsHalted()
T435C 005:273.281 - 0.540ms returns FALSE
T435C 005:374.284 JLINK_HasError()
T435C 005:374.300 JLINK_IsHalted()
T435C 005:374.856 - 0.563ms returns FALSE
T435C 005:475.042 JLINK_HasError()
T435C 005:475.081 JLINK_HasError()
T435C 005:475.103 JLINK_ReadMemU32(0xE0001004, 0x1 Items)
T435C 005:475.117   CPU_ReadMem(4 bytes @ 0xE0001004)
T435C 005:475.643   Data:  A4 5D 59 04
T435C 005:475.656   Debug reg: DWT_CYCCNT
T435C 005:475.662 - 0.561ms returns 1 (0x1)
T1E38 005:475.744 JLINK_ReadMemEx(0x400FC104, 0x4 Bytes, Flags = 0x02000000)
T1E38 005:475.758   CPU_ReadMem(4 bytes @ 0x400FC104)
T1E38 005:476.064   Data:  01 01 00 00
T1E38 005:476.073 - 0.331ms returns 4 (0x4)
T1E38 005:476.101 JLINK_ReadMemEx(0x400FC100, 0x4 Bytes, Flags = 0x02000000)
T1E38 005:476.111   CPU_ReadMem(4 bytes @ 0x400FC100)
T1E38 005:476.418   Data:  01 00 00 00
T1E38 005:476.426 - 0.327ms returns 4 (0x4)
T1E38 005:476.451 JLINK_ReadMemEx(0x400FC1A8, 0x4 Bytes, Flags = 0x02000000)
T1E38 005:476.459   CPU_ReadMem(4 bytes @ 0x400FC1A8)
T1E38 005:476.748   Data:  02 00 00 00
T1E38 005:476.756 - 0.307ms returns 4 (0x4)
T1E38 005:476.780 JLINK_ReadMemEx(0x400FC1C8, 0x4 Bytes, Flags = 0x02000000)
T1E38 005:476.788   CPU_ReadMem(4 bytes @ 0x400FC1C8)
T1E38 005:477.118   Data:  00 03 00 00
T1E38 005:477.128 - 0.349ms returns 4 (0x4)
T1E38 005:477.168 JLINK_ReadMemEx(0x400FC088, 0x4 Bytes, Flags = 0x02000000)
T1E38 005:477.191   CPU_ReadMem(4 bytes @ 0x400FC088)
T1E38 005:477.490   Data:  09 05 00 00
T1E38 005:477.498 - 0.332ms returns 4 (0x4)
T1E38 005:477.524 JLINK_ReadMemEx(0x400FC10C, 0x4 Bytes, Flags = 0x02000000)
T1E38 005:477.532   CPU_ReadMem(4 bytes @ 0x400FC10C)
T1E38 005:477.894   Data:  01 00 00 00
T1E38 005:477.902 - 0.380ms returns 4 (0x4)
T1E38 005:477.927 JLINK_ReadMemEx(0x400FC1A0, 0x4 Bytes, Flags = 0x02000000)
T1E38 005:477.935   CPU_ReadMem(4 bytes @ 0x400FC1A0)
T1E38 005:478.259   Data:  61 00 00 00
T1E38 005:478.267 - 0.342ms returns 4 (0x4)
T1E38 005:478.293 JLINK_ReadMemEx(0x400FC10C, 0x4 Bytes, Flags = 0x02000000)
T1E38 005:478.301   CPU_ReadMem(4 bytes @ 0x400FC10C)
T1E38 005:478.603   Data:  01 00 00 00
T1E38 005:478.611 - 0.320ms returns 4 (0x4)
T1E38 005:478.636 JLINK_ReadMemEx(0x400FC1A0, 0x4 Bytes, Flags = 0x02000000)
T1E38 005:478.644   CPU_ReadMem(4 bytes @ 0x400FC1A0)
T1E38 005:478.957   Data:  61 00 00 00
T1E38 005:478.974 - 0.340ms returns 4 (0x4)
T1E38 005:479.309 JLINK_ReadMemEx(0x10002D4F, 0x1 Bytes, Flags = 0x02000000)
T1E38 005:479.319   CPU_ReadMem(1 bytes @ 0x10002D4F)
T1E38 005:479.637   Data:  00
T1E38 005:479.645 - 0.337ms returns 1 (0x1)
T1E38 005:479.694 JLINK_ReadMemEx(0x1000308B, 0x20 Bytes, Flags = 0x02000000)
T1E38 005:479.703   CPU_ReadMem(32 bytes @ 0x1000308B)
T1E38 005:480.369   Data:  00 00 00 00 00 00 00 00 00 00 00 00 00 00 00 00 ...
T1E38 005:480.378 - 0.685ms returns 32 (0x20)
T435C 005:480.716 JLINK_IsHalted()
T435C 005:481.130 - 0.421ms returns FALSE
T435C 005:582.038 JLINK_HasError()
T435C 005:582.055 JLINK_IsHalted()
T435C 005:582.596 - 0.548ms returns FALSE
T435C 005:683.366 JLINK_HasError()
T435C 005:683.395 JLINK_IsHalted()
T435C 005:683.915 - 0.528ms returns FALSE
T435C 005:784.548 JLINK_HasError()
T435C 005:784.566 JLINK_IsHalted()
T435C 005:785.123 - 0.565ms returns FALSE
T435C 005:886.031 JLINK_HasError()
T435C 005:886.095 JLINK_IsHalted()
T435C 005:886.610 - 0.521ms returns FALSE
T435C 005:987.511 JLINK_HasError()
T435C 005:987.530 JLINK_HasError()
T435C 005:987.535 JLINK_ReadMemU32(0xE0001004, 0x1 Items)
T435C 005:987.548   Data:  A4 5D 59 04
T435C 005:987.555   Debug reg: DWT_CYCCNT
T435C 005:987.562 - 0.028ms returns 1 (0x1)
T1E38 005:988.376 JLINK_ReadMemEx(0x400FC104, 0x4 Bytes, Flags = 0x02000000)
T1E38 005:988.395   CPU_ReadMem(4 bytes @ 0x400FC104)
T1E38 005:988.907   Data:  01 01 00 00
T1E38 005:988.919 - 0.546ms returns 4 (0x4)
T1E38 005:988.959 JLINK_ReadMemEx(0x400FC100, 0x4 Bytes, Flags = 0x02000000)
T1E38 005:988.969   CPU_ReadMem(4 bytes @ 0x400FC100)
T1E38 005:989.430   Data:  01 00 00 00
T1E38 005:989.441 - 0.484ms returns 4 (0x4)
T1E38 005:989.475 JLINK_ReadMemEx(0x400FC1A8, 0x4 Bytes, Flags = 0x02000000)
T1E38 005:989.484   CPU_ReadMem(4 bytes @ 0x400FC1A8)
T1E38 005:989.844   Data:  02 00 00 00
T1E38 005:989.872 - 0.399ms returns 4 (0x4)
T1E38 005:989.920 JLINK_ReadMemEx(0x400FC1C8, 0x4 Bytes, Flags = 0x02000000)
T1E38 005:989.930   CPU_ReadMem(4 bytes @ 0x400FC1C8)
T1E38 005:990.356   Data:  00 03 00 00
T1E38 005:990.365 - 0.447ms returns 4 (0x4)
T1E38 005:990.421 JLINK_ReadMemEx(0x400FC088, 0x4 Bytes, Flags = 0x02000000)
T1E38 005:990.430   CPU_ReadMem(4 bytes @ 0x400FC088)
T1E38 005:990.850   Data:  09 05 00 00
T1E38 005:990.858 - 0.439ms returns 4 (0x4)
T1E38 005:990.886 JLINK_ReadMemEx(0x400FC10C, 0x4 Bytes, Flags = 0x02000000)
T1E38 005:990.896   CPU_ReadMem(4 bytes @ 0x400FC10C)
T1E38 005:991.257   Data:  01 00 00 00
T1E38 005:991.265 - 0.381ms returns 4 (0x4)
T1E38 005:991.292 JLINK_ReadMemEx(0x400FC1A0, 0x4 Bytes, Flags = 0x02000000)
T1E38 005:991.300   CPU_ReadMem(4 bytes @ 0x400FC1A0)
T1E38 005:991.628   Data:  61 00 00 00
T1E38 005:991.636 - 0.346ms returns 4 (0x4)
T1E38 005:991.662 JLINK_ReadMemEx(0x400FC10C, 0x4 Bytes, Flags = 0x02000000)
T1E38 005:991.670   CPU_ReadMem(4 bytes @ 0x400FC10C)
T1E38 005:991.987   Data:  01 00 00 00
T1E38 005:991.996 - 0.335ms returns 4 (0x4)
T1E38 005:992.021 JLINK_ReadMemEx(0x400FC1A0, 0x4 Bytes, Flags = 0x02000000)
T1E38 005:992.029   CPU_ReadMem(4 bytes @ 0x400FC1A0)
T1E38 005:992.341   Data:  61 00 00 00
T1E38 005:992.350 - 0.331ms returns 4 (0x4)
T1E38 005:992.391 JLINK_ReadMemEx(0x10002D4F, 0x1 Bytes, Flags = 0x02000000)
T1E38 005:992.400   CPU_ReadMem(1 bytes @ 0x10002D4F)
T1E38 005:992.685   Data:  00
T1E38 005:992.694 - 0.304ms returns 1 (0x1)
T1E38 005:992.744 JLINK_ReadMemEx(0x1000308B, 0x20 Bytes, Flags = 0x02000000)
T1E38 005:992.752   CPU_ReadMem(32 bytes @ 0x1000308B)
T1E38 005:993.330   Data:  00 00 00 00 00 00 00 00 00 00 00 00 00 00 00 00 ...
T1E38 005:993.338 - 0.596ms returns 32 (0x20)
T435C 005:993.596 JLINK_IsHalted()
T435C 005:993.883 - 0.292ms returns FALSE
T435C 006:094.090 JLINK_HasError()
T435C 006:094.107 JLINK_IsHalted()
T435C 006:094.658 - 0.573ms returns FALSE
T435C 006:195.002 JLINK_HasError()
T435C 006:195.021 JLINK_IsHalted()
T435C 006:195.490 - 0.478ms returns FALSE
T435C 006:296.239 JLINK_HasError()
T435C 006:296.257 JLINK_IsHalted()
T435C 006:296.693 - 0.441ms returns FALSE
T435C 006:397.450 JLINK_HasError()
T435C 006:397.467 JLINK_IsHalted()
T435C 006:397.964 - 0.505ms returns FALSE
T435C 006:498.443 JLINK_HasError()
T435C 006:498.515 JLINK_IsHalted()
T435C 006:499.549 - 1.070ms returns FALSE
T435C 006:600.549 JLINK_HasError()
T435C 006:600.599 JLINK_HasError()
T435C 006:600.618 JLINK_ReadMemU32(0xE0001004, 0x1 Items)
T435C 006:600.630   Data:  A4 5D 59 04
T435C 006:600.653   Debug reg: DWT_CYCCNT
T435C 006:600.660 - 0.043ms returns 1 (0x1)
T1E38 006:600.957 JLINK_ReadMemEx(0x400FC104, 0x4 Bytes, Flags = 0x02000000)
T1E38 006:600.973   CPU_ReadMem(4 bytes @ 0x400FC104)
T1E38 006:601.478   Data:  01 01 00 00
T1E38 006:601.489 - 0.534ms returns 4 (0x4)
T1E38 006:601.550 JLINK_ReadMemEx(0x400FC100, 0x4 Bytes, Flags = 0x02000000)
T1E38 006:601.559   CPU_ReadMem(4 bytes @ 0x400FC100)
T1E38 006:601.959   Data:  01 00 00 00
T1E38 006:601.967 - 0.419ms returns 4 (0x4)
T1E38 006:601.991 JLINK_ReadMemEx(0x400FC1A8, 0x4 Bytes, Flags = 0x02000000)
T1E38 006:601.998   CPU_ReadMem(4 bytes @ 0x400FC1A8)
T1E38 006:602.361   Data:  02 00 00 00
T1E38 006:602.369 - 0.380ms returns 4 (0x4)
T1E38 006:602.393 JLINK_ReadMemEx(0x400FC1C8, 0x4 Bytes, Flags = 0x02000000)
T1E38 006:602.401   CPU_ReadMem(4 bytes @ 0x400FC1C8)
T1E38 006:602.774   Data:  00 03 00 00
T1E38 006:602.783 - 0.391ms returns 4 (0x4)
T1E38 006:602.809 JLINK_ReadMemEx(0x400FC088, 0x4 Bytes, Flags = 0x02000000)
T1E38 006:602.817   CPU_ReadMem(4 bytes @ 0x400FC088)
T1E38 006:603.176   Data:  09 05 00 00
T1E38 006:603.184 - 0.377ms returns 4 (0x4)
T1E38 006:603.210 JLINK_ReadMemEx(0x400FC10C, 0x4 Bytes, Flags = 0x02000000)
T1E38 006:603.217   CPU_ReadMem(4 bytes @ 0x400FC10C)
T1E38 006:603.619   Data:  01 00 00 00
T1E38 006:603.627 - 0.419ms returns 4 (0x4)
T1E38 006:603.653 JLINK_ReadMemEx(0x400FC1A0, 0x4 Bytes, Flags = 0x02000000)
T1E38 006:603.661   CPU_ReadMem(4 bytes @ 0x400FC1A0)
T1E38 006:604.029   Data:  61 00 00 00
T1E38 006:604.037 - 0.387ms returns 4 (0x4)
T1E38 006:604.062 JLINK_ReadMemEx(0x400FC10C, 0x4 Bytes, Flags = 0x02000000)
T1E38 006:604.070   CPU_ReadMem(4 bytes @ 0x400FC10C)
T1E38 006:604.483   Data:  01 00 00 00
T1E38 006:604.492 - 0.431ms returns 4 (0x4)
T1E38 006:604.540 JLINK_ReadMemEx(0x400FC1A0, 0x4 Bytes, Flags = 0x02000000)
T1E38 006:604.548   CPU_ReadMem(4 bytes @ 0x400FC1A0)
T1E38 006:604.912   Data:  61 00 00 00
T1E38 006:604.921 - 0.383ms returns 4 (0x4)
T1E38 006:604.957 JLINK_ReadMemEx(0x10002D4F, 0x1 Bytes, Flags = 0x02000000)
T1E38 006:604.966   CPU_ReadMem(1 bytes @ 0x10002D4F)
T1E38 006:605.307   Data:  00
T1E38 006:605.315 - 0.359ms returns 1 (0x1)
T1E38 006:605.361 JLINK_ReadMemEx(0x1000308B, 0x20 Bytes, Flags = 0x02000000)
T1E38 006:605.369   CPU_ReadMem(32 bytes @ 0x1000308B)
T1E38 006:606.083   Data:  00 00 00 00 00 00 00 00 00 00 00 00 00 00 00 00 ...
T1E38 006:606.091 - 0.732ms returns 32 (0x20)
T435C 006:606.367 JLINK_IsHalted()
T435C 006:606.723 - 0.362ms returns FALSE
T435C 006:706.899 JLINK_HasError()
T435C 006:706.962 JLINK_IsHalted()
T435C 006:707.955 - 1.036ms returns FALSE
T435C 006:808.812 JLINK_HasError()
T435C 006:808.829 JLINK_IsHalted()
T435C 006:809.273 - 0.452ms returns FALSE
T435C 006:909.979 JLINK_HasError()
T435C 006:909.996 JLINK_IsHalted()
T435C 006:910.603 - 0.615ms returns FALSE
T435C 007:010.993 JLINK_HasError()
T435C 007:011.069 JLINK_IsHalted()
T435C 007:011.642 - 0.581ms returns FALSE
T435C 007:112.002 JLINK_HasError()
T435C 007:112.018 JLINK_IsHalted()
T435C 007:112.583 - 0.574ms returns FALSE
T435C 007:213.431 JLINK_HasError()
T435C 007:213.448 JLINK_HasError()
T435C 007:213.454 JLINK_ReadMemU32(0xE0001004, 0x1 Items)
T435C 007:213.477   Data:  A4 5D 59 04
T435C 007:213.485   Debug reg: DWT_CYCCNT
T435C 007:213.492 - 0.040ms returns 1 (0x1)
T1E38 007:213.915 JLINK_ReadMemEx(0x400FC104, 0x4 Bytes, Flags = 0x02000000)
T1E38 007:213.931   CPU_ReadMem(4 bytes @ 0x400FC104)
T1E38 007:214.413   Data:  01 01 00 00
T1E38 007:214.426 - 0.513ms returns 4 (0x4)
T1E38 007:214.468 JLINK_ReadMemEx(0x400FC100, 0x4 Bytes, Flags = 0x02000000)
